Time [s], Analyzer Name, Decoded Protocol Result
0.000123360000000,USB LS and FS,SYNC
0.000124000000000,USB LS and FS,PID SOF
0.000124680000000,USB LS and FS,Frame # 0x4CD
0.000125600000000,USB LS and FS,CRC OK 0x1D
0.000126040000000,USB LS and FS,EOP
0.001123360000000,USB LS and FS,SYNC
0.001124040000000,USB LS and FS,PID SOF
0.001124720000000,USB LS and FS,Frame # 0x4CE
0.001125600000000,USB LS and FS,CRC OK 0x15
0.001126040000000,USB LS and FS,EOP
0.002123440000000,USB LS and FS,SYNC
0.002124120000000,USB LS and FS,PID SOF
0.002124760000000,USB LS and FS,Frame # 0x4CF
0.002125680000000,USB LS and FS,CRC OK 0x0A
0.002126120000000,USB LS and FS,EOP
0.003123480000000,USB LS and FS,SYNC
0.003124160000000,USB LS and FS,PID SOF
0.003124840000000,USB LS and FS,Frame # 0x4D0
0.003125720000000,USB LS and FS,CRC OK 0x17
0.003126160000000,USB LS and FS,EOP
0.004123520000000,USB LS and FS,SYNC
0.004124200000000,USB LS and FS,PID SOF
0.004124840000000,USB LS and FS,Frame # 0x4D1
0.004125760000000,USB LS and FS,CRC OK 0x08
0.004126200000000,USB LS and FS,EOP
0.005123560000000,USB LS and FS,SYNC
0.005124240000000,USB LS and FS,PID SOF
0.005124920000000,USB LS and FS,Frame # 0x4D2
0.005125840000000,USB LS and FS,CRC OK 0x00
0.005126240000000,USB LS and FS,EOP
0.006123640000000,USB LS and FS,SYNC
0.006124280000000,USB LS and FS,PID SOF
0.006124960000000,USB LS and FS,Frame # 0x4D3
0.006125880000000,USB LS and FS,CRC OK 0x1F
0.006126400000000,USB LS and FS,EOP
0.007123680000000,USB LS and FS,SYNC
0.007124320000000,USB LS and FS,PID SOF
0.007125000000000,USB LS and FS,Frame # 0x4D4
0.007125920000000,USB LS and FS,CRC OK 0x10
0.007126360000000,USB LS and FS,EOP
0.008123720000000,USB LS and FS,SYNC
0.008124360000000,USB LS and FS,PID SOF
0.008125040000000,USB LS and FS,Frame # 0x4D5
0.008125960000000,USB LS and FS,CRC OK 0x0F
0.008126400000000,USB LS and FS,EOP
0.009123760000000,USB LS and FS,SYNC
0.009124400000000,USB LS and FS,PID SOF
0.009125080000000,USB LS and FS,Frame # 0x4D6
0.009126000000000,USB LS and FS,CRC OK 0x07
0.009126440000000,USB LS and FS,EOP
0.010123800000000,USB LS and FS,SYNC
0.010124480000000,USB LS and FS,PID SOF
0.010125120000000,USB LS and FS,Frame # 0x4D7
0.010126080000000,USB LS and FS,CRC OK 0x18
0.010126480000000,USB LS and FS,EOP
0.011123840000000,USB LS and FS,SYNC
0.011124520000000,USB LS and FS,PID SOF
0.011125200000000,USB LS and FS,Frame # 0x4D8
0.011126080000000,USB LS and FS,CRC OK 0x19
0.011126520000000,USB LS and FS,EOP
0.012123880000000,USB LS and FS,SYNC
0.012124560000000,USB LS and FS,PID SOF
0.012125240000000,USB LS and FS,Frame # 0x4D9
0.012126160000000,USB LS and FS,CRC OK 0x06
0.012126560000000,USB LS and FS,EOP
0.013123920000000,USB LS and FS,SYNC
0.013124600000000,USB LS and FS,PID SOF
0.013125280000000,USB LS and FS,Frame # 0x4DA
0.013126200000000,USB LS and FS,CRC OK 0x0E
0.013126600000000,USB LS and FS,EOP
0.014124000000000,USB LS and FS,SYNC
0.014124640000000,USB LS and FS,PID SOF
0.014125320000000,USB LS and FS,Frame # 0x4DB
0.014126240000000,USB LS and FS,CRC OK 0x11
0.014126680000000,USB LS and FS,EOP
0.015124040000000,USB LS and FS,SYNC
0.015124680000000,USB LS and FS,PID SOF
0.015125360000000,USB LS and FS,Frame # 0x4DC
0.015126280000000,USB LS and FS,CRC OK 0x1E
0.015126720000000,USB LS and FS,EOP
0.016124080000000,USB LS and FS,SYNC
0.016124760000000,USB LS and FS,PID SOF
0.016125400000000,USB LS and FS,Frame # 0x4DD
0.016126320000000,USB LS and FS,CRC OK 0x01
0.016126760000000,USB LS and FS,EOP
0.017124120000000,USB LS and FS,SYNC
0.017124800000000,USB LS and FS,PID SOF
0.017125440000000,USB LS and FS,Frame # 0x4DE
0.017126360000000,USB LS and FS,CRC OK 0x09
0.017126800000000,USB LS and FS,EOP
0.018124160000000,USB LS and FS,SYNC
0.018124840000000,USB LS and FS,PID SOF
0.018125480000000,USB LS and FS,Frame # 0x4DF
0.018126480000000,USB LS and FS,CRC OK 0x16
0.018126920000000,USB LS and FS,EOP
0.019124240000000,USB LS and FS,SYNC
0.019124880000000,USB LS and FS,PID SOF
0.019125560000000,USB LS and FS,Frame # 0x4E0
0.019126480000000,USB LS and FS,CRC OK 0x1A
0.019126880000000,USB LS and FS,EOP
0.020124280000000,USB LS and FS,SYNC
0.020124920000000,USB LS and FS,PID SOF
0.020125600000000,USB LS and FS,Frame # 0x4E1
0.020126520000000,USB LS and FS,CRC OK 0x05
0.020126920000000,USB LS and FS,EOP
0.021124320000000,USB LS and FS,SYNC
0.021124960000000,USB LS and FS,PID SOF
0.021125640000000,USB LS and FS,Frame # 0x4E2
0.021126560000000,USB LS and FS,CRC OK 0x0D
0.021126960000000,USB LS and FS,EOP
0.022124360000000,USB LS and FS,SYNC
0.022125000000000,USB LS and FS,PID SOF
0.022125680000000,USB LS and FS,Frame # 0x4E3
0.022126600000000,USB LS and FS,CRC OK 0x12
0.022127000000000,USB LS and FS,EOP
0.023124400000000,USB LS and FS,SYNC
0.023125080000000,USB LS and FS,PID SOF
0.023125720000000,USB LS and FS,Frame # 0x4E4
0.023126640000000,USB LS and FS,CRC OK 0x1D
0.023127080000000,USB LS and FS,EOP
0.024124440000000,USB LS and FS,SYNC
0.024125120000000,USB LS and FS,PID SOF
0.024125760000000,USB LS and FS,Frame # 0x4E5
0.024126680000000,USB LS and FS,CRC OK 0x02
0.024127120000000,USB LS and FS,EOP
0.025124480000000,USB LS and FS,SYNC
0.025125160000000,USB LS and FS,PID SOF
0.025125800000000,USB LS and FS,Frame # 0x4E6
0.025126720000000,USB LS and FS,CRC OK 0x0A
0.025127160000000,USB LS and FS,EOP
0.026124520000000,USB LS and FS,SYNC
0.026125200000000,USB LS and FS,PID SOF
0.026125840000000,USB LS and FS,Frame # 0x4E7
0.026126760000000,USB LS and FS,CRC OK 0x15
0.026127200000000,USB LS and FS,EOP
0.027124600000000,USB LS and FS,SYNC
0.027125280000000,USB LS and FS,PID SOF
0.027125920000000,USB LS and FS,Frame # 0x4E8
0.027126840000000,USB LS and FS,CRC OK 0x14
0.027127280000000,USB LS and FS,EOP
0.028124640000000,USB LS and FS,SYNC
0.028125280000000,USB LS and FS,PID SOF
0.028125960000000,USB LS and FS,Frame # 0x4E9
0.028126880000000,USB LS and FS,CRC OK 0x0B
0.028127320000000,USB LS and FS,EOP
0.029124680000000,USB LS and FS,SYNC
0.029125320000000,USB LS and FS,PID SOF
0.029126000000000,USB LS and FS,Frame # 0x4EA
0.029126920000000,USB LS and FS,CRC OK 0x03
0.029127360000000,USB LS and FS,EOP
0.030124720000000,USB LS and FS,SYNC
0.030125360000000,USB LS and FS,PID SOF
0.030126040000000,USB LS and FS,Frame # 0x4EB
0.030126960000000,USB LS and FS,CRC OK 0x1C
0.030127400000000,USB LS and FS,EOP
0.031124800000000,USB LS and FS,SYNC
0.031125440000000,USB LS and FS,PID SOF
0.031126120000000,USB LS and FS,Frame # 0x4EC
0.031127040000000,USB LS and FS,CRC OK 0x13
0.031127480000000,USB LS and FS,EOP
0.032124800000000,USB LS and FS,SYNC
0.032125480000000,USB LS and FS,PID SOF
0.032126120000000,USB LS and FS,Frame # 0x4ED
0.032127080000000,USB LS and FS,CRC OK 0x0C
0.032127480000000,USB LS and FS,EOP
0.033124840000000,USB LS and FS,SYNC
0.033125520000000,USB LS and FS,PID SOF
0.033126200000000,USB LS and FS,Frame # 0x4EE
0.033127120000000,USB LS and FS,CRC OK 0x04
0.033127520000000,USB LS and FS,EOP
0.034124880000000,USB LS and FS,SYNC
0.034125560000000,USB LS and FS,PID SOF
0.034126200000000,USB LS and FS,Frame # 0x4EF
0.034127120000000,USB LS and FS,CRC OK 0x1B
0.034127560000000,USB LS and FS,EOP
0.035124920000000,USB LS and FS,SYNC
0.035125600000000,USB LS and FS,PID SOF
0.035126280000000,USB LS and FS,Frame # 0x4F0
0.035127200000000,USB LS and FS,CRC OK 0x06
0.035127600000000,USB LS and FS,EOP
0.036125000000000,USB LS and FS,SYNC
0.036125640000000,USB LS and FS,PID SOF
0.036126320000000,USB LS and FS,Frame # 0x4F1
0.036127240000000,USB LS and FS,CRC OK 0x19
0.036127680000000,USB LS and FS,EOP
0.037125040000000,USB LS and FS,SYNC
0.037125680000000,USB LS and FS,PID SOF
0.037126360000000,USB LS and FS,Frame # 0x4F2
0.037127280000000,USB LS and FS,CRC OK 0x11
0.037127720000000,USB LS and FS,EOP
0.038125080000000,USB LS and FS,SYNC
0.038125720000000,USB LS and FS,PID SOF
0.038126400000000,USB LS and FS,Frame # 0x4F3
0.038127320000000,USB LS and FS,CRC OK 0x0E
0.038127760000000,USB LS and FS,EOP
0.039125120000000,USB LS and FS,SYNC
0.039125800000000,USB LS and FS,PID SOF
0.039126440000000,USB LS and FS,Frame # 0x4F4
0.039127360000000,USB LS and FS,CRC OK 0x01
0.039127800000000,USB LS and FS,EOP
0.040125160000000,USB LS and FS,SYNC
0.040125840000000,USB LS and FS,PID SOF
0.040126520000000,USB LS and FS,Frame # 0x4F5
0.040127440000000,USB LS and FS,CRC OK 0x1E
0.040127840000000,USB LS and FS,EOP
0.041125200000000,USB LS and FS,SYNC
0.041125880000000,USB LS and FS,PID SOF
0.041126560000000,USB LS and FS,Frame # 0x4F6
0.041127480000000,USB LS and FS,CRC OK 0x16
0.041127880000000,USB LS and FS,EOP
0.042125280000000,USB LS and FS,SYNC
0.042125920000000,USB LS and FS,PID SOF
0.042126600000000,USB LS and FS,Frame # 0x4F7
0.042127520000000,USB LS and FS,CRC OK 0x09
0.042127920000000,USB LS and FS,EOP
0.043125320000000,USB LS and FS,SYNC
0.043125960000000,USB LS and FS,PID SOF
0.043126640000000,USB LS and FS,Frame # 0x4F8
0.043127560000000,USB LS and FS,CRC OK 0x08
0.043127960000000,USB LS and FS,EOP
0.044125360000000,USB LS and FS,SYNC
0.044126040000000,USB LS and FS,PID SOF
0.044126680000000,USB LS and FS,Frame # 0x4F9
0.044127600000000,USB LS and FS,CRC OK 0x17
0.044128040000000,USB LS and FS,EOP
0.045125400000000,USB LS and FS,SYNC
0.045126080000000,USB LS and FS,PID SOF
0.045126720000000,USB LS and FS,Frame # 0x4FA
0.045127640000000,USB LS and FS,CRC OK 0x1F
0.045128160000000,USB LS and FS,EOP
0.046125440000000,USB LS and FS,SYNC
0.046126120000000,USB LS and FS,PID SOF
0.046126760000000,USB LS and FS,Frame # 0x4FB
0.046127680000000,USB LS and FS,CRC OK 0x00
0.046128120000000,USB LS and FS,EOP
0.047125480000000,USB LS and FS,SYNC
0.047126160000000,USB LS and FS,PID SOF
0.047126800000000,USB LS and FS,Frame # 0x4FC
0.047127800000000,USB LS and FS,CRC OK 0x0F
0.047128240000000,USB LS and FS,EOP
0.048125560000000,USB LS and FS,SYNC
0.048126200000000,USB LS and FS,PID SOF
0.048126880000000,USB LS and FS,Frame # 0x4FD
0.048127880000000,USB LS and FS,CRC OK 0x10
0.048128320000000,USB LS and FS,EOP
0.049125600000000,USB LS and FS,SYNC
0.049126240000000,USB LS and FS,PID SOF
0.049126920000000,USB LS and FS,Frame # 0x4FE
0.049127920000000,USB LS and FS,CRC OK 0x18
0.049128360000000,USB LS and FS,EOP
0.050125640000000,USB LS and FS,SYNC
0.050126280000000,USB LS and FS,PID SOF
0.050126960000000,USB LS and FS,Frame # 0x4FF
0.050127960000000,USB LS and FS,CRC OK 0x07
0.050128400000000,USB LS and FS,EOP
0.051125680000000,USB LS and FS,SYNC
0.051126320000000,USB LS and FS,PID SOF
0.051127000000000,USB LS and FS,Frame # 0x500
0.051127920000000,USB LS and FS,CRC OK 0x13
0.051128360000000,USB LS and FS,EOP
0.052125760000000,USB LS and FS,SYNC
0.052126400000000,USB LS and FS,PID SOF
0.052127080000000,USB LS and FS,Frame # 0x501
0.052128000000000,USB LS and FS,CRC OK 0x0C
0.052128400000000,USB LS and FS,EOP
0.053125760000000,USB LS and FS,SYNC
0.053126440000000,USB LS and FS,PID SOF
0.053127120000000,USB LS and FS,Frame # 0x502
0.053128000000000,USB LS and FS,CRC OK 0x04
0.053128440000000,USB LS and FS,EOP
0.054125800000000,USB LS and FS,SYNC
0.054126480000000,USB LS and FS,PID SOF
0.054127120000000,USB LS and FS,Frame # 0x503
0.054128040000000,USB LS and FS,CRC OK 0x1B
0.054128480000000,USB LS and FS,EOP
0.055125840000000,USB LS and FS,SYNC
0.055126520000000,USB LS and FS,PID SOF
0.055127200000000,USB LS and FS,Frame # 0x504
0.055128120000000,USB LS and FS,CRC OK 0x14
0.055128520000000,USB LS and FS,EOP
0.056125880000000,USB LS and FS,SYNC
0.056126560000000,USB LS and FS,PID SOF
0.056127200000000,USB LS and FS,Frame # 0x505
0.056128120000000,USB LS and FS,CRC OK 0x0B
0.056128560000000,USB LS and FS,EOP
0.057125960000000,USB LS and FS,SYNC
0.057126600000000,USB LS and FS,PID SOF
0.057127280000000,USB LS and FS,Frame # 0x506
0.057128200000000,USB LS and FS,CRC OK 0x03
0.057128640000000,USB LS and FS,EOP
0.058126000000000,USB LS and FS,SYNC
0.058126640000000,USB LS and FS,PID SOF
0.058127320000000,USB LS and FS,Frame # 0x507
0.058128240000000,USB LS and FS,CRC OK 0x1C
0.058128680000000,USB LS and FS,EOP
0.059126040000000,USB LS and FS,SYNC
0.059126680000000,USB LS and FS,PID SOF
0.059127360000000,USB LS and FS,Frame # 0x508
0.059128280000000,USB LS and FS,CRC OK 0x1D
0.059128720000000,USB LS and FS,EOP
0.060126080000000,USB LS and FS,SYNC
0.060126720000000,USB LS and FS,PID SOF
0.060127400000000,USB LS and FS,Frame # 0x509
0.060128320000000,USB LS and FS,CRC OK 0x02
0.060128760000000,USB LS and FS,EOP
0.061126120000000,USB LS and FS,SYNC
0.061126800000000,USB LS and FS,PID SOF
0.061127480000000,USB LS and FS,Frame # 0x50A
0.061128400000000,USB LS and FS,CRC OK 0x0A
0.061128800000000,USB LS and FS,EOP
0.062126160000000,USB LS and FS,SYNC
0.062126840000000,USB LS and FS,PID SOF
0.062127520000000,USB LS and FS,Frame # 0x50B
0.062128400000000,USB LS and FS,CRC OK 0x15
0.062128840000000,USB LS and FS,EOP
0.063126200000000,USB LS and FS,SYNC
0.063126880000000,USB LS and FS,PID SOF
0.063127560000000,USB LS and FS,Frame # 0x50C
0.063128480000000,USB LS and FS,CRC OK 0x1A
0.063128880000000,USB LS and FS,EOP
0.064126240000000,USB LS and FS,SYNC
0.064126920000000,USB LS and FS,PID SOF
0.064127600000000,USB LS and FS,Frame # 0x50D
0.064128520000000,USB LS and FS,CRC OK 0x05
0.064128920000000,USB LS and FS,EOP
0.065126320000000,USB LS and FS,SYNC
0.065126960000000,USB LS and FS,PID SOF
0.065127640000000,USB LS and FS,Frame # 0x50E
0.065128560000000,USB LS and FS,CRC OK 0x0D
0.065129000000000,USB LS and FS,EOP
0.066126360000000,USB LS and FS,SYNC
0.066127000000000,USB LS and FS,PID SOF
0.066127680000000,USB LS and FS,Frame # 0x50F
0.066128600000000,USB LS and FS,CRC OK 0x12
0.066129040000000,USB LS and FS,EOP
0.067126400000000,USB LS and FS,SYNC
0.067127080000000,USB LS and FS,PID SOF
0.067127720000000,USB LS and FS,Frame # 0x510
0.067128640000000,USB LS and FS,CRC OK 0x0F
0.067129080000000,USB LS and FS,EOP
0.068126440000000,USB LS and FS,SYNC
0.068127120000000,USB LS and FS,PID SOF
0.068127760000000,USB LS and FS,Frame # 0x511
0.068128680000000,USB LS and FS,CRC OK 0x10
0.068129120000000,USB LS and FS,EOP
0.069126480000000,USB LS and FS,SYNC
0.069127160000000,USB LS and FS,PID SOF
0.069127800000000,USB LS and FS,Frame # 0x512
0.069128720000000,USB LS and FS,CRC OK 0x18
0.069129160000000,USB LS and FS,EOP
0.070126560000000,USB LS and FS,SYNC
0.070127200000000,USB LS and FS,PID SOF
0.070127880000000,USB LS and FS,Frame # 0x513
0.070128800000000,USB LS and FS,CRC OK 0x07
0.070129200000000,USB LS and FS,EOP
0.071126600000000,USB LS and FS,SYNC
0.071127240000000,USB LS and FS,PID SOF
0.071127920000000,USB LS and FS,Frame # 0x514
0.071128840000000,USB LS and FS,CRC OK 0x08
0.071129240000000,USB LS and FS,EOP
0.072126640000000,USB LS and FS,SYNC
0.072127280000000,USB LS and FS,PID SOF
0.072127960000000,USB LS and FS,Frame # 0x515
0.072128880000000,USB LS and FS,CRC OK 0x17
0.072129280000000,USB LS and FS,EOP
0.073126680000000,USB LS and FS,SYNC
0.073127320000000,USB LS and FS,PID SOF
0.073128000000000,USB LS and FS,Frame # 0x516
0.073128920000000,USB LS and FS,CRC OK 0x1F
0.073129440000000,USB LS and FS,EOP
0.074126720000000,USB LS and FS,SYNC
0.074127400000000,USB LS and FS,PID SOF
0.074128040000000,USB LS and FS,Frame # 0x517
0.074128960000000,USB LS and FS,CRC OK 0x00
0.074129400000000,USB LS and FS,EOP
0.075126760000000,USB LS and FS,SYNC
0.075127440000000,USB LS and FS,PID SOF
0.075128080000000,USB LS and FS,Frame # 0x518
0.075129000000000,USB LS and FS,CRC OK 0x01
0.075129440000000,USB LS and FS,EOP
0.076126800000000,USB LS and FS,SYNC
0.076127480000000,USB LS and FS,PID SOF
0.076128120000000,USB LS and FS,Frame # 0x519
0.076129040000000,USB LS and FS,CRC OK 0x1E
0.076129480000000,USB LS and FS,EOP
0.077126840000000,USB LS and FS,SYNC
0.077127520000000,USB LS and FS,PID SOF
0.077128200000000,USB LS and FS,Frame # 0x51A
0.077129080000000,USB LS and FS,CRC OK 0x16
0.077129520000000,USB LS and FS,EOP
0.078126920000000,USB LS and FS,SYNC
0.078127560000000,USB LS and FS,PID SOF
0.078128240000000,USB LS and FS,Frame # 0x51B
0.078129160000000,USB LS and FS,CRC OK 0x09
0.078129600000000,USB LS and FS,EOP
0.079126960000000,USB LS and FS,SYNC
0.079127600000000,USB LS and FS,PID SOF
0.079128280000000,USB LS and FS,Frame # 0x51C
0.079129200000000,USB LS and FS,CRC OK 0x06
0.079129640000000,USB LS and FS,EOP
0.080127000000000,USB LS and FS,SYNC
0.080127640000000,USB LS and FS,PID SOF
0.080128320000000,USB LS and FS,Frame # 0x51D
0.080129240000000,USB LS and FS,CRC OK 0x19
0.080129680000000,USB LS and FS,EOP
0.081127040000000,USB LS and FS,SYNC
0.081127680000000,USB LS and FS,PID SOF
0.081128360000000,USB LS and FS,Frame # 0x51E
0.081129280000000,USB LS and FS,CRC OK 0x11
0.081129720000000,USB LS and FS,EOP
0.082127040000000,USB LS and FS,SYNC
0.082127720000000,USB LS and FS,PID SOF
0.082128400000000,USB LS and FS,Frame # 0x51F
0.082129400000000,USB LS and FS,CRC OK 0x0E
0.082129800000000,USB LS and FS,EOP
0.083127120000000,USB LS and FS,SYNC
0.083127800000000,USB LS and FS,PID SOF
0.083128480000000,USB LS and FS,Frame # 0x520
0.083129400000000,USB LS and FS,CRC OK 0x02
0.083129800000000,USB LS and FS,EOP
0.084127160000000,USB LS and FS,SYNC
0.084127840000000,USB LS and FS,PID SOF
0.084128520000000,USB LS and FS,Frame # 0x521
0.084129400000000,USB LS and FS,CRC OK 0x1D
0.084129840000000,USB LS and FS,EOP
0.085127200000000,USB LS and FS,SYNC
0.085127880000000,USB LS and FS,PID SOF
0.085128560000000,USB LS and FS,Frame # 0x522
0.085129440000000,USB LS and FS,CRC OK 0x15
0.085129880000000,USB LS and FS,EOP
0.086127240000000,USB LS and FS,SYNC
0.086127920000000,USB LS and FS,PID SOF
0.086128600000000,USB LS and FS,Frame # 0x523
0.086129520000000,USB LS and FS,CRC OK 0x0A
0.086129920000000,USB LS and FS,EOP
0.087127320000000,USB LS and FS,SYNC
0.087127960000000,USB LS and FS,PID SOF
0.087128640000000,USB LS and FS,Frame # 0x524
0.087129560000000,USB LS and FS,CRC OK 0x05
0.087130000000000,USB LS and FS,EOP
0.088127360000000,USB LS and FS,SYNC
0.088128000000000,USB LS and FS,PID SOF
0.088128680000000,USB LS and FS,Frame # 0x525
0.088129600000000,USB LS and FS,CRC OK 0x1A
0.088130040000000,USB LS and FS,EOP
0.089127400000000,USB LS and FS,SYNC
0.089128040000000,USB LS and FS,PID SOF
0.089128720000000,USB LS and FS,Frame # 0x526
0.089129640000000,USB LS and FS,CRC OK 0x12
0.089130080000000,USB LS and FS,EOP
0.090127440000000,USB LS and FS,SYNC
0.090128120000000,USB LS and FS,PID SOF
0.090128760000000,USB LS and FS,Frame # 0x527
0.090129680000000,USB LS and FS,CRC OK 0x0D
0.090130120000000,USB LS and FS,EOP
0.091127480000000,USB LS and FS,SYNC
0.091128160000000,USB LS and FS,PID SOF
0.091128840000000,USB LS and FS,Frame # 0x528
0.091129760000000,USB LS and FS,CRC OK 0x0C
0.091130160000000,USB LS and FS,EOP
0.092127560000000,USB LS and FS,SYNC
0.092128200000000,USB LS and FS,PID SOF
0.092128880000000,USB LS and FS,Frame # 0x529
0.092129800000000,USB LS and FS,CRC OK 0x13
0.092130200000000,USB LS and FS,EOP
0.093127600000000,USB LS and FS,SYNC
0.093128240000000,USB LS and FS,PID SOF
0.093128920000000,USB LS and FS,Frame # 0x52A
0.093129840000000,USB LS and FS,CRC OK 0x1B
0.093130240000000,USB LS and FS,EOP
0.094127640000000,USB LS and FS,SYNC
0.094128280000000,USB LS and FS,PID SOF
0.094128960000000,USB LS and FS,Frame # 0x52B
0.094129880000000,USB LS and FS,CRC OK 0x04
0.094130280000000,USB LS and FS,EOP
0.095127680000000,USB LS and FS,SYNC
0.095128360000000,USB LS and FS,PID SOF
0.095129000000000,USB LS and FS,Frame # 0x52C
0.095129920000000,USB LS and FS,CRC OK 0x0B
0.095130360000000,USB LS and FS,EOP
0.096127720000000,USB LS and FS,SYNC
0.096128400000000,USB LS and FS,PID SOF
0.096129040000000,USB LS and FS,Frame # 0x52D
0.096129960000000,USB LS and FS,CRC OK 0x14
0.096130400000000,USB LS and FS,EOP
0.097127760000000,USB LS and FS,SYNC
0.097128440000000,USB LS and FS,PID SOF
0.097129080000000,USB LS and FS,Frame # 0x52E
0.097130000000000,USB LS and FS,CRC OK 0x1C
0.097130440000000,USB LS and FS,EOP
0.098127800000000,USB LS and FS,SYNC
