name,type,start_time,duration,value
USB LS and FS,v1frame,6.52434544,1.00E-06,Error packet
USB LS and FS,v1frame,6.52434681,1.25E-07,Error packet
USB LS and FS,v1frame,6.52434694,5.00E-07,Error packet
USB LS and FS,v1frame,6.52434744,5.00E-07,Error packet
USB LS and FS,v1frame,6.52534513,1.87E-07,Error packet
USB LS and FS,v1frame,6.52534531,2.50E-07,Error packet
USB LS and FS,v1frame,6.52534556,5.00E-07,Error packet
USB LS and FS,v1frame,6.52534606,2.50E-07,Error packet
USB LS and FS,v1frame,6.52534688,1.88E-07,Error packet
USB LS and FS,v1frame,6.52534706,8.12E-07,Error packet
USB LS and FS,v1frame,6.52534781,2.50E-07,Error packet
USB LS and FS,v1frame,6.52634519,2.50E-07,Error packet
USB LS and FS,v1frame,6.52634544,2.50E-07,Error packet
USB LS and FS,v1frame,6.52634606,1.25E-07,Error packet
USB LS and FS,v1frame,6.5263465,1.88E-07,Error packet
USB LS and FS,v1frame,6.52634694,2.50E-07,Error packet
USB LS and FS,v1frame,6.52634775,2.50E-07,Error packet
USB LS and FS,v1frame,6.52734519,1.25E-07,Error packet
USB LS and FS,v1frame,6.52734531,2.50E-07,Error packet
USB LS and FS,v1frame,6.52734556,1.50E-06,Error packet
USB LS and FS,v1frame,6.52734706,5.00E-07,Error packet
USB LS and FS,v1frame,6.52734756,4.38E-07,Error packet
USB LS and FS,v1frame,6.52834525,2.81E-06,Error packet
USB LS and FS,v1frame,6.52934531,2.81E-06,Error packet
USB LS and FS,v1frame,6.53004825,2.75E-06,Error packet
USB LS and FS,v1frame,6.53005156,8.19E-06,Error packet
USB LS and FS,v1frame,6.53006031,5.63E-07,SYNC
USB LS and FS,v1frame,6.53006088,6.88E-07,PID ACK
USB LS and FS,v1frame,6.53006156,1.88E-07,EOP
USB LS and FS,v1frame,6.53014681,2.81E-06,Error packet
USB LS and FS,v1frame,6.53015012,1.50E-06,Error packet
USB LS and FS,v1frame,6.53034544,2.75E-06,Error packet
USB LS and FS,v1frame,6.53134537,2.81E-06,Error packet
USB LS and FS,v1frame,6.53136681,2.81E-06,Error packet
USB LS and FS,v1frame,6.53137019,2.81E-06,Error packet
USB LS and FS,v1frame,6.53137356,5.00E-07,Error packet
USB LS and FS,v1frame,6.53137438,6.25E-07,Error packet
USB LS and FS,v1frame,6.53234544,2.81E-06,Error packet
USB LS and FS,v1frame,6.5333455,1.75E-06,Error packet
USB LS and FS,v1frame,6.53334725,1.13E-06,Error packet
USB LS and FS,v1frame,6.53434563,2.75E-06,Error packet
USB LS and FS,v1frame,6.53534556,2.81E-06,Error packet
USB LS and FS,v1frame,6.53634563,2.81E-06,Error packet
USB LS and FS,v1frame,6.53734569,2.50E-07,Error packet
USB LS and FS,v1frame,6.53734594,2.56E-06,Error packet
USB LS and FS,v1frame,6.53834569,1.25E-07,Error packet
USB LS and FS,v1frame,6.53834581,2.50E-07,Error packet
USB LS and FS,v1frame,6.53834606,1.00E-06,Error packet
USB LS and FS,v1frame,6.53834706,2.50E-07,Error packet
USB LS and FS,v1frame,6.53834731,2.50E-07,Error packet
USB LS and FS,v1frame,6.53834756,7.50E-07,Error packet
USB LS and FS,v1frame,6.53834831,2.50E-07,Error packet
USB LS and FS,v1frame,6.53934575,1.88E-07,Error packet
USB LS and FS,v1frame,6.53934594,2.50E-07,Error packet
USB LS and FS,v1frame,6.53934619,5.00E-07,Error packet
USB LS and FS,v1frame,6.53934669,2.50E-07,Error packet
USB LS and FS,v1frame,6.53934731,1.25E-07,Error packet
USB LS and FS,v1frame,6.53934756,1.25E-07,Error packet
USB LS and FS,v1frame,6.53934769,8.75E-07,Error packet
USB LS and FS,v1frame,6.54034581,2.50E-07,Error packet
USB LS and FS,v1frame,6.54034606,2.50E-07,Error packet
USB LS and FS,v1frame,6.54034669,1.25E-07,Error packet
USB LS and FS,v1frame,6.54034737,4.38E-07,Error packet
USB LS and FS,v1frame,6.54134594,2.75E-06,Error packet
USB LS and FS,v1frame,6.54234587,2.81E-06,Error packet
USB LS and FS,v1frame,6.54334594,2.81E-06,Error packet
USB LS and FS,v1frame,6.54434606,2.75E-06,Error packet
USB LS and FS,v1frame,6.54534613,5.63E-07,SYNC
USB LS and FS,v1frame,6.54534669,6.88E-07,PID SOF
USB LS and FS,v1frame,6.54534738,8.75E-07,Frame # 0x62B
USB LS and FS,v1frame,6.54534825,4.38E-07,CRC OK 0x0B
USB LS and FS,v1frame,6.54534869,2.50E-07,EOP
USB LS and FS,v1frame,6.54634606,2.81E-06,Error packet
USB LS and FS,v1frame,6.54734612,2.81E-06,Error packet
USB LS and FS,v1frame,6.54834625,5.63E-07,SYNC
USB LS and FS,v1frame,6.54834681,6.88E-07,PID SOF
USB LS and FS,v1frame,6.5483475,8.75E-07,Frame # 0x62E
USB LS and FS,v1frame,6.54834837,4.38E-07,CRC OK 0x13
USB LS and FS,v1frame,6.54834881,2.50E-07,EOP
USB LS and FS,v1frame,6.54934625,5.00E-07,Error packet
USB LS and FS,v1frame,6.54934712,1.94E-06,Error packet
USB LS and FS,v1frame,6.55034625,1.88E-07,Error packet
USB LS and FS,v1frame,6.55034644,2.50E-07,Error packet
USB LS and FS,v1frame,6.55034669,5.00E-07,Error packet
USB LS and FS,v1frame,6.55034719,2.50E-07,Error packet
USB LS and FS,v1frame,6.55034756,1.25E-07,Error packet
USB LS and FS,v1frame,6.55034769,5.00E-07,Error packet
USB LS and FS,v1frame,6.55034819,5.00E-07,Error packet
USB LS and FS,v1frame,6.55034869,3.75E-07,Error packet
USB LS and FS,v1frame,6.55134631,2.50E-07,Error packet
USB LS and FS,v1frame,6.55134656,2.50E-07,Error packet
USB LS and FS,v1frame,6.55134719,1.25E-07,Error packet
USB LS and FS,v1frame,6.55134769,1.25E-07,Error packet
USB LS and FS,v1frame,6.55134781,5.00E-07,Error packet
USB LS and FS,v1frame,6.55134888,2.50E-07,Error packet
USB LS and FS,v1frame,6.55234631,1.25E-07,Error packet
USB LS and FS,v1frame,6.55234644,2.50E-07,Error packet
USB LS and FS,v1frame,6.55234669,1.00E-06,Error packet
USB LS and FS,v1frame,6.55234781,1.25E-07,Error packet
USB LS and FS,v1frame,6.55234819,7.50E-07,Error packet
USB LS and FS,v1frame,6.55234894,1.88E-07,Error packet
USB LS and FS,v1frame,6.55334638,1.88E-07,Error packet
USB LS and FS,v1frame,6.55334656,7.50E-07,Error packet
USB LS and FS,v1frame,6.55334731,2.50E-07,Error packet
USB LS and FS,v1frame,6.55334788,4.38E-07,Error packet
USB LS and FS,v1frame,6.55334831,5.00E-07,Error packet
USB LS and FS,v1frame,6.55434644,2.81E-06,Error packet
USB LS and FS,v1frame,6.55534656,2.75E-06,Error packet
USB LS and FS,v1frame,6.5563465,2.81E-06,Error packet
USB LS and FS,v1frame,6.55734656,2.81E-06,Error packet
USB LS and FS,v1frame,6.55834663,2.88E-06,Error packet
USB LS and FS,v1frame,6.55934675,2.75E-06,Error packet
USB LS and FS,v1frame,6.56002581,3.75E-07,Error packet
USB LS and FS,v1frame,6.56002619,1.75E-06,Error packet
USB LS and FS,v1frame,6.56002794,2.50E-07,Error packet
USB LS and FS,v1frame,6.56002819,4.38E-07,Error packet
USB LS and FS,v1frame,6.56002925,1.88E-07,Error packet
USB LS and FS,v1frame,6.56002944,7.50E-07,Error packet
USB LS and FS,v1frame,6.56003019,1.81E-06,Error packet
USB LS and FS,v1frame,6.56003194,2.50E-07,Error packet
USB LS and FS,v1frame,6.56003219,2.50E-07,Error packet
USB LS and FS,v1frame,6.56003244,2.50E-07,Error packet
USB LS and FS,v1frame,6.56003269,2.50E-07,Error packet
USB LS and FS,v1frame,6.56003294,2.50E-07,Error packet
USB LS and FS,v1frame,6.56003319,2.50E-07,Error packet
USB LS and FS,v1frame,6.56003344,2.50E-07,Error packet
USB LS and FS,v1frame,6.56003369,5.00E-07,Error packet
USB LS and FS,v1frame,6.56003419,1.00E-06,Error packet
USB LS and FS,v1frame,6.56003519,2.50E-07,Error packet
USB LS and FS,v1frame,6.56003544,2.50E-07,Error packet
USB LS and FS,v1frame,6.56003569,5.00E-07,Error packet
USB LS and FS,v1frame,6.56003619,1.19E-06,Error packet
USB LS and FS,v1frame,6.56003787,3.75E-07,Error packet
USB LS and FS,v1frame,6.56003825,5.00E-07,Error packet
USB LS and FS,v1frame,6.56003875,2.50E-07,Error packet
USB LS and FS,v1frame,6.560138,3.75E-07,Error packet
USB LS and FS,v1frame,6.56013838,5.00E-07,Error packet
USB LS and FS,v1frame,6.56013944,6.88E-07,Error packet
USB LS and FS,v1frame,6.56014013,2.50E-07,Error packet
USB LS and FS,v1frame,6.56014037,4.38E-07,Error packet
USB LS and FS,v1frame,6.56014131,1.50E-06,Error packet
USB LS and FS,v1frame,6.56034669,2.81E-06,Error packet
USB LS and FS,v1frame,6.56134675,2.81E-06,Error packet
USB LS and FS,v1frame,6.56136813,2.81E-06,Error packet
USB LS and FS,v1frame,6.56137144,8.13E-06,Error packet
USB LS and FS,v1frame,6.56138019,1.50E-06,Error packet
USB LS and FS,v1frame,6.56151337,2.81E-06,Error packet
USB LS and FS,v1frame,6.56151669,1.50E-06,Error packet
USB LS and FS,v1frame,6.56234681,2.50E-07,Error packet
USB LS and FS,v1frame,6.56234706,2.50E-07,Error packet
USB LS and FS,v1frame,6.56234769,1.25E-07,Error packet
USB LS and FS,v1frame,6.56234812,9.38E-07,Error packet
USB LS and FS,v1frame,6.56234906,5.63E-07,Error packet
USB LS and FS,v1frame,6.56274319,1.25E-07,Error packet
USB LS and FS,v1frame,6.56274331,2.50E-07,Error packet
USB LS and FS,v1frame,6.56274356,5.00E-07,Error packet
USB LS and FS,v1frame,6.56274462,1.88E-07,Error packet
USB LS and FS,v1frame,6.56274494,1.25E-07,Error packet
USB LS and FS,v1frame,6.56274506,2.50E-07,Error packet
USB LS and FS,v1frame,6.56274531,2.50E-07,Error packet
USB LS and FS,v1frame,6.56274556,2.50E-07,Error packet
USB LS and FS,v1frame,6.56274581,2.50E-07,Error packet
USB LS and FS,v1frame,6.56274656,8.13E-06,Error packet
USB LS and FS,v1frame,6.56275538,5.63E-07,SYNC
USB LS and FS,v1frame,6.56275594,6.88E-07,PID ACK
USB LS and FS,v1frame,6.56275662,1.88E-07,EOP
USB LS and FS,v1frame,6.56288606,2.75E-06,Error packet
USB LS and FS,v1frame,6.56288919,1.25E-07,Error packet
USB LS and FS,v1frame,6.56288931,1.38E-06,Error packet
USB LS and FS,v1frame,6.56334681,1.25E-07,Error packet
USB LS and FS,v1frame,6.56334694,2.50E-07,Error packet
USB LS and FS,v1frame,6.56334719,1.50E-06,Error packet
USB LS and FS,v1frame,6.56334869,7.50E-07,Error packet
USB LS and FS,v1frame,6.56334944,2.50E-07,Error packet
USB LS and FS,v1frame,6.56411825,2.81E-06,Error packet
USB LS and FS,v1frame,6.5641215,3.19E-06,Error packet
USB LS and FS,v1frame,6.56412469,1.06E-06,Error packet
USB LS and FS,v1frame,6.56412644,2.50E-07,Error packet
USB LS and FS,v1frame,6.56412669,2.50E-07,Error packet
USB LS and FS,v1frame,6.56412725,6.25E-07,Error packet
USB LS and FS,v1frame,6.56426156,2.75E-06,Error packet
USB LS and FS,v1frame,6.56426488,2.88E-06,Error packet
USB LS and FS,v1frame,6.56426806,1.25E-07,Error packet
USB LS and FS,v1frame,6.56426819,2.50E-07,Error packet
USB LS and FS,v1frame,6.56426844,5.00E-07,Error packet
USB LS and FS,v1frame,6.56426894,2.50E-07,Error packet
USB LS and FS,v1frame,6.56434688,1.88E-07,Error packet
USB LS and FS,v1frame,6.56434706,2.50E-07,Error packet
USB LS and FS,v1frame,6.56434731,5.00E-07,Error packet
USB LS and FS,v1frame,6.56434781,2.50E-07,Error packet
USB LS and FS,v1frame,6.56434869,1.25E-07,Error packet
USB LS and FS,v1frame,6.56434881,8.13E-07,Error packet
USB LS and FS,v1frame,6.56434956,2.50E-07,Error packet
USB LS and FS,v1frame,6.56443637,2.75E-06,Error packet
USB LS and FS,v1frame,6.56443969,8.19E-06,Error packet
USB LS and FS,v1frame,6.56444825,1.50E-06,Error packet
USB LS and FS,v1frame,6.56451113,2.81E-06,Error packet
USB LS and FS,v1frame,6.5645145,1.38E-06,Error packet
USB LS and FS,v1frame,6.56534694,2.50E-07,Error packet
USB LS and FS,v1frame,6.56534719,2.50E-07,Error packet
USB LS and FS,v1frame,6.56534781,1.25E-07,Error packet
USB LS and FS,v1frame,6.56534881,1.25E-07,Error packet
USB LS and FS,v1frame,6.56534894,5.00E-07,Error packet
USB LS and FS,v1frame,6.56534944,3.75E-07,Error packet
USB LS and FS,v1frame,6.56574331,3.75E-07,Error packet
USB LS and FS,v1frame,6.56574369,5.00E-07,Error packet
USB LS and FS,v1frame,6.56574475,1.87E-07,Error packet
USB LS and FS,v1frame,6.56574506,1.25E-07,Error packet
USB LS and FS,v1frame,6.56574519,2.50E-07,Error packet
USB LS and FS,v1frame,6.56574544,2.50E-07,Error packet
USB LS and FS,v1frame,6.56574569,2.50E-07,Error packet
USB LS and FS,v1frame,6.56574594,1.88E-07,Error packet
USB LS and FS,v1frame,6.56574663,1.50E-06,Error packet
USB LS and FS,v1frame,6.56634706,2.75E-06,Error packet
USB LS and FS,v1frame,6.5669935,2.75E-06,Error packet
USB LS and FS,v1frame,6.56699675,1.38E-06,Error packet
USB LS and FS,v1frame,6.567347,2.81E-06,Error packet
USB LS and FS,v1frame,6.56824344,2.81E-06,Error packet
USB LS and FS,v1frame,6.56824669,1.50E-06,Error packet
USB LS and FS,v1frame,6.56834706,2.81E-06,Error packet
USB LS and FS,v1frame,6.56934719,2.50E-06,Error packet
USB LS and FS,v1frame,6.56949375,3.75E-07,Error packet
USB LS and FS,v1frame,6.56949413,5.00E-07,Error packet
USB LS and FS,v1frame,6.56949519,1.87E-07,Error packet
USB LS and FS,v1frame,6.5694955,1.25E-07,Error packet
USB LS and FS,v1frame,6.56949563,2.50E-07,Error packet
USB LS and FS,v1frame,6.56949588,2.50E-07,Error packet
USB LS and FS,v1frame,6.56949612,2.50E-07,Error packet
USB LS and FS,v1frame,6.56949637,1.88E-07,Error packet
USB LS and FS,v1frame,6.56949706,1.50E-06,Error packet
USB LS and FS,v1frame,6.57034712,2.81E-06,Error packet
USB LS and FS,v1frame,6.57074356,2.81E-06,Error packet
USB LS and FS,v1frame,6.57074681,5.00E-07,Error packet
USB LS and FS,v1frame,6.57134719,2.94E-06,Error packet
USB LS and FS,v1frame,6.57199363,1.88E-07,Error packet
USB LS and FS,v1frame,6.57199381,2.63E-06,Error packet
USB LS and FS,v1frame,6.571997,4.38E-07,Error packet
USB LS and FS,v1frame,6.57234725,2.81E-06,Error packet
USB LS and FS,v1frame,6.57324375,2.81E-06,Error packet
USB LS and FS,v1frame,6.57324694,1.50E-06,Error packet
USB LS and FS,v1frame,6.57334737,2.75E-06,Error packet
USB LS and FS,v1frame,6.57434731,2.81E-06,Error packet
USB LS and FS,v1frame,6.57449375,2.81E-06,Error packet
USB LS and FS,v1frame,6.574497,1.87E-07,Error packet
USB LS and FS,v1frame,6.57449719,1.31E-06,Error packet
USB LS and FS,v1frame,6.57534737,1.88E-07,Error packet
USB LS and FS,v1frame,6.57534756,2.50E-07,Error packet
USB LS and FS,v1frame,6.57534781,5.00E-07,Error packet
USB LS and FS,v1frame,6.57534831,2.50E-07,Error packet
USB LS and FS,v1frame,6.57534881,2.50E-07,Error packet
USB LS and FS,v1frame,6.57534906,2.50E-07,Error packet
USB LS and FS,v1frame,6.57534931,8.75E-07,Error packet
USB LS and FS,v1frame,6.57574394,2.81E-06,Error packet
USB LS and FS,v1frame,6.57574719,1.50E-06,Error packet
USB LS and FS,v1frame,6.57634744,2.50E-07,Error packet
USB LS and FS,v1frame,6.57634769,2.50E-07,Error packet
USB LS and FS,v1frame,6.57634831,1.25E-07,Error packet
USB LS and FS,v1frame,6.57634906,1.25E-07,Error packet
USB LS and FS,v1frame,6.57634931,1.25E-07,Error packet
USB LS and FS,v1frame,6.57635,2.50E-07,Error packet
USB LS and FS,v1frame,6.57699394,2.75E-06,Error packet
USB LS and FS,v1frame,6.57699725,1.38E-06,Error packet
USB LS and FS,v1frame,6.57734744,1.25E-07,Error packet
USB LS and FS,v1frame,6.57734756,2.50E-07,Error packet
USB LS and FS,v1frame,6.57734781,2.06E-06,Error packet
USB LS and FS,v1frame,6.57734981,4.38E-07,Error packet
USB LS and FS,v1frame,6.57824388,1.25E-07,Error packet
USB LS and FS,v1frame,6.578244,2.50E-07,Error packet
USB LS and FS,v1frame,6.57824425,5.00E-07,Error packet
USB LS and FS,v1frame,6.57824531,1.88E-07,Error packet
USB LS and FS,v1frame,6.57824563,1.25E-07,Error packet
USB LS and FS,v1frame,6.57824575,2.50E-07,Error packet
USB LS and FS,v1frame,6.578246,2.50E-07,Error packet
USB LS and FS,v1frame,6.57824625,2.50E-07,Error packet
USB LS and FS,v1frame,6.5782465,1.88E-07,Error packet
USB LS and FS,v1frame,6.57824719,3.75E-07,Error packet
USB LS and FS,v1frame,6.57824756,1.13E-06,Error packet
USB LS and FS,v1frame,6.5783475,1.88E-07,Error packet
USB LS and FS,v1frame,6.57834769,2.50E-07,Error packet
USB LS and FS,v1frame,6.57834794,5.00E-07,Error packet
USB LS and FS,v1frame,6.57834844,2.50E-07,Error packet
USB LS and FS,v1frame,6.57834881,1.25E-07,Error packet
USB LS and FS,v1frame,6.57834919,2.50E-07,Error packet
USB LS and FS,v1frame,6.57834944,8.75E-07,Error packet
USB LS and FS,v1frame,6.57934756,2.81E-06,Error packet
USB LS and FS,v1frame,6.57949413,2.81E-06,Error packet
USB LS and FS,v1frame,6.57949744,1.44E-06,Error packet
USB LS and FS,v1frame,6.58034769,2.75E-06,Error packet
USB LS and FS,v1frame,6.58074438,2.75E-06,Error packet
USB LS and FS,v1frame,6.58074756,5.00E-07,Error packet
USB LS and FS,v1frame,6.58074881,1.88E-07,Error packet
USB LS and FS,v1frame,6.58134763,2.81E-06,Error packet
USB LS and FS,v1frame,6.58199412,2.81E-06,Error packet
USB LS and FS,v1frame,6.58199744,1.44E-06,Error packet
USB LS and FS,v1frame,6.58234769,2.81E-06,Error packet
USB LS and FS,v1frame,6.58324413,2.81E-06,Error packet
USB LS and FS,v1frame,6.58324738,1.88E-07,Error packet
USB LS and FS,v1frame,6.58324756,1.31E-06,Error packet
USB LS and FS,v1frame,6.58334781,2.75E-06,Error packet
USB LS and FS,v1frame,6.58434787,2.75E-06,Error packet
USB LS and FS,v1frame,6.58449419,1.88E-07,Error packet
USB LS and FS,v1frame,6.58449438,1.75E-06,Error packet
USB LS and FS,v1frame,6.58449613,8.75E-07,Error packet
USB LS and FS,v1frame,6.5844975,1.88E-07,Error packet
USB LS and FS,v1frame,6.58449769,1.31E-06,Error packet
USB LS and FS,v1frame,6.58534781,2.81E-06,Error packet
USB LS and FS,v1frame,6.5857445,2.81E-06,Error packet
USB LS and FS,v1frame,6.58574769,1.50E-06,Error packet
USB LS and FS,v1frame,6.58634788,2.81E-06,Error packet
USB LS and FS,v1frame,6.58699437,2.81E-06,Error packet
USB LS and FS,v1frame,6.58699769,5.00E-07,Error packet
USB LS and FS,v1frame,6.58699894,1.88E-07,Error packet
USB LS and FS,v1frame,6.587348,5.62E-07,SYNC
USB LS and FS,v1frame,6.58734856,6.88E-07,PID SOF
USB LS and FS,v1frame,6.58734925,8.75E-07,Frame # 0x655
USB LS and FS,v1frame,6.58735013,4.37E-07,CRC OK 0x13
USB LS and FS,v1frame,6.58735056,2.50E-07,EOP
USB LS and FS,v1frame,6.58824438,2.50E-07,Error packet
USB LS and FS,v1frame,6.58824462,2.50E-07,Error packet
USB LS and FS,v1frame,6.58824513,2.50E-07,Error packet
USB LS and FS,v1frame,6.58824575,1.25E-07,Error packet
USB LS and FS,v1frame,6.58824588,2.50E-07,Error packet
USB LS and FS,v1frame,6.58824613,2.50E-07,Error packet
USB LS and FS,v1frame,6.58824637,5.00E-07,Error packet
USB LS and FS,v1frame,6.58824688,3.12E-07,Error packet
USB LS and FS,v1frame,6.58824763,1.88E-07,Error packet
USB LS and FS,v1frame,6.58824781,1.31E-06,Error packet
USB LS and FS,v1frame,6.58834794,1.25E-07,Error packet
USB LS and FS,v1frame,6.58834806,2.50E-07,Error packet
USB LS and FS,v1frame,6.58834831,1.00E-06,Error packet
USB LS and FS,v1frame,6.58834987,9.38E-07,Error packet
USB LS and FS,v1frame,6.589348,1.88E-07,Error packet
USB LS and FS,v1frame,6.58934819,2.50E-07,Error packet
USB LS and FS,v1frame,6.58934844,5.00E-07,Error packet
USB LS and FS,v1frame,6.58934894,2.50E-07,Error packet
USB LS and FS,v1frame,6.58934994,8.75E-07,Error packet
USB LS and FS,v1frame,6.5894945,2.75E-06,Error packet
USB LS and FS,v1frame,6.58949769,2.50E-07,Error packet
USB LS and FS,v1frame,6.58949794,2.50E-07,Error packet
USB LS and FS,v1frame,6.58949894,1.87E-07,Error packet
USB LS and FS,v1frame,6.59034806,2.50E-07,Error packet
USB LS and FS,v1frame,6.59034831,2.50E-07,Error packet
USB LS and FS,v1frame,6.59034894,1.25E-07,Error packet
USB LS and FS,v1frame,6.59034937,1.88E-07,Error packet
USB LS and FS,v1frame,6.59034994,1.25E-07,Error packet
USB LS and FS,v1frame,6.59035056,3.12E-07,Error packet
USB LS and FS,v1frame,6.59074575,2.81E-06,Error packet
USB LS and FS,v1frame,6.59074906,5.00E-07,Error packet
USB LS and FS,v1frame,6.59134806,3.75E-07,Error packet
USB LS and FS,v1frame,6.59134844,2.44E-06,Error packet
USB LS and FS,v1frame,6.59199481,2.50E-07,Error packet
USB LS and FS,v1frame,6.59199506,2.50E-07,Error packet
USB LS and FS,v1frame,6.59199556,2.50E-07,Error packet
USB LS and FS,v1frame,6.59199619,1.25E-07,Error packet
USB LS and FS,v1frame,6.59199631,2.50E-07,Error packet
USB LS and FS,v1frame,6.59199656,2.50E-07,Error packet
USB LS and FS,v1frame,6.59199681,5.00E-07,Error packet
USB LS and FS,v1frame,6.59199731,3.12E-07,Error packet
USB LS and FS,v1frame,6.59199806,3.75E-07,Error packet
USB LS and FS,v1frame,6.59199844,5.00E-07,Error packet
USB LS and FS,v1frame,6.59234813,2.81E-06,Error packet
USB LS and FS,v1frame,6.59324456,2.81E-06,Error packet
USB LS and FS,v1frame,6.59324788,1.88E-07,Error packet
USB LS and FS,v1frame,6.59324806,2.50E-07,Error packet
USB LS and FS,v1frame,6.59324831,1.06E-06,Error packet
